Freq(Hz)	Ampl(mV)	Bias(V)	Time(Sec)	Z'(Ohm.cm²)	Z''(Ohm.cm²)	|Z|(Ohm.cm²)	Phase	Range
1.00000E+04	10	3.27963519096375	6.18993E+00	1.18729E-01	4.59926E-02	1.27326E-01	21.1751	0
7.91234E+03	10	3.27963519096375	7.73486E+00	1.18977E-01	3.55958E-02	1.24188E-01	16.6562	0
6.26052E+03	10	3.27963519096375	9.30114E+00	1.19235E-01	2.71981E-02	1.22298E-01	12.8496	0
4.95354E+03	10	3.27963519096375	1.09298E+01	1.19675E-01	2.11009E-02	1.21521E-01	9.99952	0
3.91941E+03	10	3.27963519096375	1.26344E+01	1.20123E-01	1.58780E-02	1.21168E-01	7.52981	0
3.10117E+03	10	3.27963519096375	1.44408E+01	1.20588E-01	1.18053E-02	1.21165E-01	5.59131	0
2.45375E+03	10	3.27963519096375	1.63669E+01	1.21080E-01	8.51184E-03	1.21378E-01	4.02125	0
1.94149E+03	10	3.27963519096375	1.79905E+01	1.21499E-01	6.03136E-03	1.21648E-01	2.84191	0
1.53618E+03	10	3.27963519096375	1.97476E+01	1.22067E-01	3.94247E-03	1.22131E-01	1.84987	0
1.21547E+03	10	3.27963519096375	2.16565E+01	1.22591E-01	2.31107E-03	1.22613E-01	1.08001	0
9.61725E+02	10	3.27963519096375	2.31690E+01	1.23127E-01	1.05047E-03	1.23132E-01	0.488813	0
7.60950E+02	10	3.27963519096375	2.47775E+01	1.23628E-01	-1.68309E-05	1.23628E-01	-0.00780033	0
6.02090E+02	10	3.27963519096375	2.65792E+01	1.24157E-01	-8.71416E-04	1.24160E-01	-0.402132	0
4.76394E+02	10	3.27963519096375	2.85706E+01	1.24709E-01	-1.56423E-03	1.24719E-01	-0.718625	0
3.76939E+02	10	3.27963519096375	3.07833E+01	1.25291E-01	-2.12753E-03	1.25309E-01	-0.972833	0
2.98247E+02	10	3.27963519096375	3.33410E+01	1.25870E-01	-2.62281E-03	1.25897E-01	-1.19373	0
2.35983E+02	10	3.27963519096375	3.69298E+01	1.27351E-01	-3.03053E-03	1.27387E-01	-1.36319	0
1.86718E+02	10	3.27963519096375	4.03163E+01	1.27986E-01	-3.39378E-03	1.28031E-01	-1.51894	0
1.47738E+02	10	3.27963519096375	4.34833E+01	1.28656E-01	-3.72012E-03	1.28710E-01	-1.65626	0
1.16895E+02	10	3.27963519096375	4.73044E+01	1.29311E-01	-4.00411E-03	1.29373E-01	-1.7736	0
9.24915E+01	10	3.27963519096375	4.87869E+01	1.29886E-01	-4.11696E-03	1.29952E-01	-1.81547	0
7.31824E+01	10	3.27963519096375	5.02822E+01	1.30638E-01	-4.24298E-03	1.30707E-01	-1.86026	0
5.79045E+01	10	3.27963519096375	5.19889E+01	1.31354E-01	-4.31501E-03	1.31425E-01	-1.8815	0
4.58160E+01	10	3.27963519096375	5.29894E+01	1.32042E-01	-4.30727E-03	1.32112E-01	-1.86836	0
3.62512E+01	10	3.27963519096375	5.40495E+01	1.32839E-01	-4.27953E-03	1.32908E-01	-1.8452	0
2.86832E+01	10	3.27963519096375	5.52743E+01	1.33311E-01	-4.37833E-03	1.33383E-01	-1.88108	0
2.26951E+01	10	3.27963519096375	5.64669E+01	1.34086E-01	-4.21882E-03	1.34152E-01	-1.80214	0
1.79572E+01	10	3.27963519096375	5.77656E+01	1.34749E-01	-4.08742E-03	1.34811E-01	-1.73745	0
1.42083E+01	10	3.27963519096375	5.91833E+01	1.35363E-01	-3.91131E-03	1.35420E-01	-1.65509	0
1.12421E+01	10	3.27963519096375	6.07644E+01	1.35911E-01	-3.74305E-03	1.35962E-01	-1.57756	0
8.89514E+00	10	3.27963519096375	6.19515E+01	1.36439E-01	-3.54462E-03	1.36485E-01	-1.48818	0
7.03814E+00	10	3.27963519096375	6.32230E+01	1.36986E-01	-3.41729E-03	1.37029E-01	-1.42902	0
5.56882E+00	10	3.27963519096375	6.46242E+01	1.37463E-01	-3.35970E-03	1.37504E-01	-1.40007	0
4.40624E+00	10	3.27963519096375	6.61841E+01	1.37893E-01	-3.15148E-03	1.37929E-01	-1.30924	0
3.48637E+00	10	3.27963519096375	6.79290E+01	1.38264E-01	-3.09273E-03	1.38299E-01	-1.28139	0
2.75853E+00	10	3.27963519096375	6.98974E+01	1.38702E-01	-2.96485E-03	1.38734E-01	-1.22455	0
2.18265E+00	10	3.27963519096375	7.21850E+01	1.39083E-01	-2.83526E-03	1.39112E-01	-1.16783	0
1.72698E+00	10	3.27963519096375	7.48723E+01	1.39383E-01	-2.81632E-03	1.39411E-01	-1.15754	0
1.36645E+00	10	3.27963519096375	7.80162E+01	1.39633E-01	-2.79490E-03	1.39661E-01	-1.14668	0
1.08118E+00	10	3.27963519096375	8.17846E+01	1.39949E-01	-2.78654E-03	1.39977E-01	-1.14068	0
8.55468E-01	10	3.27963519096375	8.63243E+01	1.40279E-01	-2.74504E-03	1.40306E-01	-1.12104	0
6.76875E-01	10	3.27963519096375	9.18591E+01	1.40597E-01	-2.72363E-03	1.40623E-01	-1.10979	0
5.35567E-01	10	3.27963519096375	9.85892E+01	1.40886E-01	-2.73304E-03	1.40912E-01	-1.11134	0
4.23759E-01	10	3.27963519096375	1.06901E+02	1.41237E-01	-2.77985E-03	1.41264E-01	-1.12756	0
3.35293E-01	10	3.27963519096375	1.17143E+02	1.41580E-01	-2.77579E-03	1.41607E-01	-1.12319	0
2.65295E-01	10	3.27963519096375	1.25797E+02	1.41965E-01	-2.72246E-03	1.41991E-01	-1.09862	0
2.09910E-01	10	3.27963519096375	1.36385E+02	1.42269E-01	-2.78014E-03	1.42296E-01	-1.1195	0
1.66088E-01	10	3.27963519096375	1.49523E+02	1.42485E-01	-2.92609E-03	1.42515E-01	-1.17647	0
1.31415E-01	10	3.27963519096375	1.65910E+02	1.42710E-01	-3.07344E-03	1.42743E-01	-1.23375	0
1.03980E-01	10	3.27963519096375	1.86352E+02	1.43086E-01	-3.31449E-03	1.43124E-01	-1.32698	0
8.22724E-02	10	3.27963519096375	1.99508E+02	1.43290E-01	-3.60851E-03	1.43336E-01	-1.44259	0
6.50968E-02	10	3.27963519096375	2.15898E+02	1.43599E-01	-4.04489E-03	1.43656E-01	-1.61348	0
5.15068E-02	10	3.27963519096375	2.36361E+02	1.43975E-01	-4.44629E-03	1.44044E-01	-1.76887	0
4.07539E-02	10	3.27963519096375	2.62021E+02	1.44326E-01	-5.11058E-03	1.44417E-01	-2.02799	0
3.22459E-02	10	3.27963519096375	2.94201E+02	1.44726E-01	-5.86861E-03	1.44845E-01	-2.32206	0
2.55141E-02	10	3.27963519096375	3.34652E+02	1.45123E-01	-6.77512E-03	1.45281E-01	-2.67293	0
2.01876E-02	10	3.27963519096375	3.85540E+02	1.45667E-01	-7.92214E-03	1.45882E-01	-3.11299	0
1.59731E-02	10	3.27963519096375	4.49617E+02	1.46329E-01	-9.30959E-03	1.46625E-01	-3.64031	0
1.26385E-02	10	3.27963519096375	5.30340E+02	1.47113E-01	-1.09846E-02	1.47523E-01	-4.27021	0
1.00000E-02	10	3.27963519096375	6.32089E+02	1.48164E-01	-1.30152E-02	1.48735E-01	-5.02017	0