Freq(Hz)	Ampl(mV)	Bias(V)	Time(Sec)	Z'(Ohm.cm²)	Z''(Ohm.cm²)	|Z|(Ohm.cm²)	Phase	Range
1.00000E+04	10	3.2711865901947	6.34446E+00	1.18180E-01	4.58258E-02	1.26753E-01	21.1945	0
7.91234E+03	10	3.2711865901947	7.87603E+00	1.18345E-01	3.55485E-02	1.23569E-01	16.7192	0
6.26052E+03	10	3.2711865901947	9.46223E+00	1.18656E-01	2.72349E-02	1.21741E-01	12.9271	0
4.95354E+03	10	3.2711865901947	1.11110E+01	1.19096E-01	2.11981E-02	1.20968E-01	10.0925	0
3.91941E+03	10	3.2711865901947	1.28270E+01	1.19441E-01	1.61032E-02	1.20522E-01	7.6784	0
3.10117E+03	10	3.2711865901947	1.46441E+01	1.19894E-01	1.21240E-02	1.20505E-01	5.77428	0
2.45375E+03	10	3.2711865901947	1.65276E+01	1.20301E-01	8.89565E-03	1.20629E-01	4.22904	0
1.94149E+03	10	3.2711865901947	1.81585E+01	1.20663E-01	6.47050E-03	1.20836E-01	3.06952	0
1.53618E+03	10	3.2711865901947	1.99290E+01	1.21122E-01	4.40931E-03	1.21202E-01	2.08487	0
1.21547E+03	10	3.2711865901947	2.18440E+01	1.21598E-01	2.81575E-03	1.21630E-01	1.32652	0
9.61725E+02	10	3.2711865901947	2.33270E+01	1.21992E-01	1.56414E-03	1.22002E-01	0.734589	0
7.60950E+02	10	3.2711865901947	2.49432E+01	1.22420E-01	5.06976E-04	1.22421E-01	0.237277	0
6.02090E+02	10	3.2711865901947	2.67252E+01	1.22876E-01	-3.42849E-04	1.22877E-01	-0.159866	0
4.76394E+02	10	3.2711865901947	2.87093E+01	1.23341E-01	-1.02525E-03	1.23345E-01	-0.476251	0
3.76939E+02	10	3.2711865901947	3.09734E+01	1.23833E-01	-1.63199E-03	1.23844E-01	-0.755051	0
2.98247E+02	10	3.2711865901947	3.35112E+01	1.24335E-01	-2.13070E-03	1.24353E-01	-0.981772	0
2.35983E+02	10	3.2711865901947	3.70583E+01	1.25786E-01	-2.54547E-03	1.25812E-01	-1.15931	0
1.86718E+02	10	3.2711865901947	4.04596E+01	1.26347E-01	-2.93305E-03	1.26381E-01	-1.32984	0
1.47738E+02	10	3.2711865901947	4.36587E+01	1.26953E-01	-3.28397E-03	1.26996E-01	-1.48177	0
1.16895E+02	10	3.2711865901947	4.74585E+01	1.27574E-01	-3.59322E-03	1.27625E-01	-1.61335	0
9.24915E+01	10	3.2711865901947	4.89231E+01	1.28103E-01	-3.74713E-03	1.28158E-01	-1.67548	0
7.31824E+01	10	3.2711865901947	5.04571E+01	1.28789E-01	-3.87576E-03	1.28847E-01	-1.72373	0
5.79045E+01	10	3.2711865901947	5.21578E+01	1.29484E-01	-4.03537E-03	1.29547E-01	-1.78504	0
4.58160E+01	10	3.2711865901947	5.31427E+01	1.30215E-01	-4.15674E-03	1.30282E-01	-1.82838	0
3.62512E+01	10	3.2711865901947	5.41922E+01	1.30924E-01	-4.11180E-03	1.30988E-01	-1.79884	0
2.86832E+01	10	3.2711865901947	5.54227E+01	1.31428E-01	-4.24060E-03	1.31497E-01	-1.84803	0
2.26951E+01	10	3.2711865901947	5.66262E+01	1.32222E-01	-4.12467E-03	1.32286E-01	-1.78676	0
1.79572E+01	10	3.2711865901947	5.79365E+01	1.32906E-01	-3.97044E-03	1.32965E-01	-1.71114	0
1.42083E+01	10	3.2711865901947	5.93420E+01	1.33502E-01	-3.80603E-03	1.33556E-01	-1.63302	0
1.12421E+01	10	3.2711865901947	6.09250E+01	1.34105E-01	-3.60378E-03	1.34154E-01	-1.53933	0
8.89514E+00	10	3.2711865901947	6.21037E+01	1.34598E-01	-3.51402E-03	1.34644E-01	-1.49551	0
7.03814E+00	10	3.2711865901947	6.33756E+01	1.35127E-01	-3.23499E-03	1.35166E-01	-1.37142	0
5.56882E+00	10	3.2711865901947	6.47754E+01	1.35532E-01	-3.12416E-03	1.35568E-01	-1.3205	0
4.40624E+00	10	3.2711865901947	6.63405E+01	1.36005E-01	-2.92431E-03	1.36036E-01	-1.23176	0
3.48637E+00	10	3.2711865901947	6.80692E+01	1.36338E-01	-2.82760E-03	1.36367E-01	-1.18812	0
2.75853E+00	10	3.2711865901947	7.00572E+01	1.36759E-01	-2.70238E-03	1.36786E-01	-1.13202	0
2.18265E+00	10	3.2711865901947	7.23409E+01	1.37141E-01	-2.54394E-03	1.37164E-01	-1.06271	0
1.72698E+00	10	3.2711865901947	7.50089E+01	1.37418E-01	-2.49174E-03	1.37441E-01	-1.0388	0
1.36645E+00	10	3.2711865901947	7.81689E+01	1.37700E-01	-2.42844E-03	1.37722E-01	-1.01035	0
1.08118E+00	10	3.2711865901947	8.19407E+01	1.37990E-01	-2.42761E-03	1.38011E-01	-1.00788	0
8.55468E-01	10	3.2711865901947	8.64745E+01	1.38294E-01	-2.35886E-03	1.38314E-01	-0.977191	0
6.76875E-01	10	3.2711865901947	9.20073E+01	1.38566E-01	-2.34151E-03	1.38586E-01	-0.968102	0
5.35567E-01	10	3.2711865901947	9.87394E+01	1.38893E-01	-2.36173E-03	1.38913E-01	-0.974166	0
4.23759E-01	10	3.2711865901947	1.07023E+02	1.39161E-01	-2.40109E-03	1.39182E-01	-0.988486	0
3.35293E-01	10	3.2711865901947	1.17288E+02	1.39477E-01	-2.42005E-03	1.39498E-01	-0.994033	0
2.65295E-01	10	3.2711865901947	1.25956E+02	1.39844E-01	-2.31916E-03	1.39863E-01	-0.950101	0
2.09910E-01	10	3.2711865901947	1.36540E+02	1.40046E-01	-2.40588E-03	1.40067E-01	-0.984196	0
1.66088E-01	10	3.2711865901947	1.49671E+02	1.40292E-01	-2.56600E-03	1.40315E-01	-1.04785	0
1.31415E-01	10	3.2711865901947	1.66038E+02	1.40530E-01	-2.76079E-03	1.40557E-01	-1.12546	0
1.03980E-01	10	3.2711865901947	1.86519E+02	1.40708E-01	-3.05507E-03	1.40741E-01	-1.24382	0
8.22724E-02	10	3.2711865901947	1.99669E+02	1.41019E-01	-3.36365E-03	1.41059E-01	-1.36639	0
6.50968E-02	10	3.2711865901947	2.16052E+02	1.41299E-01	-3.78157E-03	1.41350E-01	-1.53303	0
5.15068E-02	10	3.2711865901947	2.36502E+02	1.41632E-01	-4.36261E-03	1.41700E-01	-1.76429	0
4.07539E-02	10	3.2711865901947	2.62165E+02	1.42018E-01	-5.02056E-03	1.42107E-01	-2.02466	0
3.22459E-02	10	3.2711865901947	2.94380E+02	1.42428E-01	-5.85881E-03	1.42548E-01	-2.35555	0
2.55141E-02	10	3.2711865901947	3.34804E+02	1.43007E-01	-6.84981E-03	1.43170E-01	-2.74229	0
2.01876E-02	10	3.2711865901947	3.85708E+02	1.43640E-01	-8.08369E-03	1.43868E-01	-3.22105	0
1.59731E-02	10	3.2711865901947	4.49758E+02	1.44481E-01	-9.59835E-03	1.44799E-01	-3.80078	0
1.26385E-02	10	3.2711865901947	5.30488E+02	1.45458E-01	-1.13948E-02	1.45904E-01	-4.47924	0
1.00000E-02	10	3.2711865901947	6.32249E+02	1.46829E-01	-1.34954E-02	1.47448E-01	-5.25145	0