Freq(Hz)	Ampl(mV)	Bias(V)	Time(Sec)	Z'(Ohm.cm²)	Z''(Ohm.cm²)	|Z|(Ohm.cm²)	Phase	Range
1.00000E+04	10	3.29911780357361	6.71955E+00	1.17459E-01	4.59861E-02	1.26140E-01	21.3807	0
7.91234E+03	10	3.29911780357361	8.25820E+00	1.17540E-01	3.58158E-02	1.22875E-01	16.9467	0
6.26052E+03	10	3.29911780357361	9.83876E+00	1.17645E-01	2.76061E-02	1.20840E-01	13.2059	0
4.95354E+03	10	3.29911780357361	1.14672E+01	1.17973E-01	2.15701E-02	1.19929E-01	10.3615	0
3.91941E+03	10	3.29911780357361	1.31670E+01	1.18245E-01	1.65625E-02	1.19399E-01	7.9735	0
3.10117E+03	10	3.29911780357361	1.49721E+01	1.18554E-01	1.26115E-02	1.19223E-01	6.07213	0
2.45375E+03	10	3.29911780357361	1.69045E+01	1.18865E-01	9.43172E-03	1.19238E-01	4.53682	0
1.94149E+03	10	3.29911780357361	1.85280E+01	1.19154E-01	7.03748E-03	1.19362E-01	3.38008	0
1.53618E+03	10	3.29911780357361	2.02773E+01	1.19523E-01	5.03514E-03	1.19629E-01	2.41227	0
1.21547E+03	10	3.29911780357361	2.22213E+01	1.19881E-01	3.44086E-03	1.19930E-01	1.64407	0
9.61725E+02	10	3.29911780357361	2.36988E+01	1.20181E-01	2.24405E-03	1.20202E-01	1.06972	0
7.60950E+02	10	3.29911780357361	2.53269E+01	1.20510E-01	1.22441E-03	1.20516E-01	0.582121	0
6.02090E+02	10	3.29911780357361	2.71145E+01	1.20872E-01	4.18348E-04	1.20873E-01	0.198305	0
4.76394E+02	10	3.29911780357361	2.90933E+01	1.21208E-01	-2.05783E-04	1.21208E-01	-0.0972748	0
3.76939E+02	10	3.29911780357361	3.13237E+01	1.21564E-01	-7.61973E-04	1.21566E-01	-0.35913	0
2.98247E+02	10	3.29911780357361	3.38725E+01	1.21936E-01	-1.20876E-03	1.21942E-01	-0.567956	0
2.35983E+02	10	3.29911780357361	3.74404E+01	1.23228E-01	-1.54291E-03	1.23238E-01	-0.717349	0
1.86718E+02	10	3.29911780357361	4.08316E+01	1.23686E-01	-1.84366E-03	1.23700E-01	-0.853982	0
1.47738E+02	10	3.29911780357361	4.40252E+01	1.24081E-01	-2.11450E-03	1.24099E-01	-0.976299	0
1.16895E+02	10	3.29911780357361	4.78475E+01	1.24515E-01	-2.32131E-03	1.24537E-01	-1.06803	0
9.24915E+01	10	3.29911780357361	4.93104E+01	1.24882E-01	-2.39993E-03	1.24905E-01	-1.10095	0
7.31824E+01	10	3.29911780357361	5.08488E+01	1.25332E-01	-2.48123E-03	1.25357E-01	-1.13415	0
5.79045E+01	10	3.29911780357361	5.25268E+01	1.25796E-01	-2.51693E-03	1.25821E-01	-1.14623	0
4.58160E+01	10	3.29911780357361	5.35333E+01	1.26271E-01	-2.52578E-03	1.26296E-01	-1.14592	0
3.62512E+01	10	3.29911780357361	5.45831E+01	1.26635E-01	-2.46796E-03	1.26659E-01	-1.11648	0
2.86832E+01	10	3.29911780357361	5.58088E+01	1.26994E-01	-2.59813E-03	1.27021E-01	-1.17203	0
2.26951E+01	10	3.29911780357361	5.70174E+01	1.27392E-01	-2.49340E-03	1.27417E-01	-1.12129	0
1.79572E+01	10	3.29911780357361	5.82949E+01	1.27736E-01	-2.37270E-03	1.27758E-01	-1.06415	0
1.42083E+01	10	3.29911780357361	5.97230E+01	1.28094E-01	-2.27135E-03	1.28114E-01	-1.01586	0
1.12421E+01	10	3.29911780357361	6.13007E+01	1.28442E-01	-2.13557E-03	1.28460E-01	-0.952551	0
8.89514E+00	10	3.29911780357361	6.24850E+01	1.28716E-01	-2.06118E-03	1.28732E-01	-0.917422	0
7.03814E+00	10	3.29911780357361	6.37753E+01	1.28998E-01	-1.96362E-03	1.29013E-01	-0.872093	0
5.56882E+00	10	3.29911780357361	6.51768E+01	1.29299E-01	-1.89000E-03	1.29313E-01	-0.837448	0
4.40624E+00	10	3.29911780357361	6.67244E+01	1.29530E-01	-1.78289E-03	1.29542E-01	-0.788584	0
3.48637E+00	10	3.29911780357361	6.84672E+01	1.29731E-01	-1.73967E-03	1.29742E-01	-0.768282	0
2.75853E+00	10	3.29911780357361	7.04661E+01	1.29953E-01	-1.65499E-03	1.29964E-01	-0.72964	0
2.18265E+00	10	3.29911780357361	7.27277E+01	1.30171E-01	-1.57056E-03	1.30181E-01	-0.691257	0
1.72698E+00	10	3.29911780357361	7.54138E+01	1.30353E-01	-1.53668E-03	1.30362E-01	-0.675408	0
1.36645E+00	10	3.29911780357361	7.85448E+01	1.30450E-01	-1.48793E-03	1.30458E-01	-0.653496	0
1.08118E+00	10	3.29911780357361	8.23151E+01	1.30601E-01	-1.50292E-03	1.30610E-01	-0.659314	0
8.55468E-01	10	3.29911780357361	8.68567E+01	1.30777E-01	-1.49926E-03	1.30786E-01	-0.656822	0
6.76875E-01	10	3.29911780357361	9.23991E+01	1.30928E-01	-1.47590E-03	1.30936E-01	-0.645847	0
5.35567E-01	10	3.29911780357361	9.91229E+01	1.31049E-01	-1.48291E-03	1.31057E-01	-0.648314	0
4.23759E-01	10	3.29911780357361	1.07412E+02	1.31217E-01	-1.57742E-03	1.31226E-01	-0.688747	0
3.35293E-01	10	3.29911780357361	1.17675E+02	1.31368E-01	-1.63949E-03	1.31378E-01	-0.715021	0
2.65295E-01	10	3.29911780357361	1.26336E+02	1.31534E-01	-1.57073E-03	1.31544E-01	-0.684168	0
2.09910E-01	10	3.29911780357361	1.36911E+02	1.31601E-01	-1.68739E-03	1.31612E-01	-0.734606	0
1.66088E-01	10	3.29911780357361	1.50056E+02	1.31732E-01	-1.83314E-03	1.31744E-01	-0.797263	0
1.31415E-01	10	3.29911780357361	1.66440E+02	1.31711E-01	-2.03453E-03	1.31726E-01	-0.884975	0
1.03980E-01	10	3.29911780357361	1.86885E+02	1.31779E-01	-2.25626E-03	1.31798E-01	-0.980898	0
8.22724E-02	10	3.29911780357361	2.00036E+02	1.32023E-01	-2.60001E-03	1.32048E-01	-1.12822	0
6.50968E-02	10	3.29911780357361	2.16441E+02	1.32176E-01	-2.94954E-03	1.32209E-01	-1.27836	0
5.15068E-02	10	3.29911780357361	2.36902E+02	1.32389E-01	-3.39787E-03	1.32432E-01	-1.47022	0
4.07539E-02	10	3.29911780357361	2.62552E+02	1.32631E-01	-3.99812E-03	1.32691E-01	-1.72664	0
3.22459E-02	10	3.29911780357361	2.94745E+02	1.32924E-01	-4.63354E-03	1.33004E-01	-1.99645	0
2.55141E-02	10	3.29911780357361	3.35190E+02	1.33197E-01	-5.44880E-03	1.33308E-01	-2.34254	0
2.01876E-02	10	3.29911780357361	3.86095E+02	1.33708E-01	-6.38685E-03	1.33860E-01	-2.73478	0
1.59731E-02	10	3.29911780357361	4.50155E+02	1.34290E-01	-7.66007E-03	1.34509E-01	-3.26468	0
1.26385E-02	10	3.29911780357361	5.30878E+02	1.34992E-01	-9.07199E-03	1.35296E-01	-3.84472	0
1.00000E-02	10	3.29911780357361	6.32634E+02	1.35968E-01	-1.06020E-02	1.36381E-01	-4.45857	0