Freq(Hz)	Ampl(mV)	Bias(V)	Time(Sec)	Z'(Ohm.cm²)	Z''(Ohm.cm²)	|Z|(Ohm.cm²)	Phase	Range
1.00000E+04	10	3.3323860168457	5.73207E+00	1.58675E-01	7.10737E-02	1.73866E-01	24.1285	1
7.91234E+03	10	3.3323860168457	8.31369E+00	1.15278E-01	3.75356E-02	1.21235E-01	18.0358	0
6.26052E+03	10	3.3323860168457	9.91059E+00	1.14168E-01	2.91752E-02	1.17837E-01	14.335	0
4.95354E+03	10	3.3323860168457	1.15705E+01	1.13623E-01	2.31022E-02	1.15947E-01	11.493	0
3.91941E+03	10	3.3323860168457	1.32470E+01	1.13315E-01	1.80394E-02	1.14742E-01	9.0454	0
3.10117E+03	10	3.3323860168457	1.50513E+01	1.13163E-01	1.40726E-02	1.14035E-01	7.08872	0
2.45375E+03	10	3.3323860168457	1.69698E+01	1.13103E-01	1.08969E-02	1.13626E-01	5.5032	0
1.94149E+03	10	3.3323860168457	1.85964E+01	1.13135E-01	8.54579E-03	1.13458E-01	4.31969	0
1.53618E+03	10	3.3323860168457	2.03469E+01	1.13205E-01	6.47075E-03	1.13390E-01	3.27143	0
1.21547E+03	10	3.3323860168457	2.22684E+01	1.13308E-01	4.92735E-03	1.13415E-01	2.49001	0
9.61725E+02	10	3.3323860168457	2.37525E+01	1.14028E-01	3.82961E-03	1.14092E-01	1.92354	0
7.60950E+02	10	3.3323860168457	2.53760E+01	1.14166E-01	2.84042E-03	1.14202E-01	1.42521	0
6.02090E+02	10	3.3323860168457	2.71918E+01	1.14280E-01	2.05523E-03	1.14299E-01	1.0303	0
4.76394E+02	10	3.3323860168457	2.91586E+01	1.14445E-01	1.44072E-03	1.14454E-01	0.721247	0
3.76939E+02	10	3.3323860168457	3.13900E+01	1.14583E-01	9.52207E-04	1.14587E-01	0.476129	0
2.98247E+02	10	3.3323860168457	3.39371E+01	1.14712E-01	5.60628E-04	1.14713E-01	0.280018	0
2.35983E+02	10	3.3323860168457	3.75033E+01	1.15700E-01	2.79748E-04	1.15700E-01	0.138534	0
1.86718E+02	10	3.3323860168457	4.08746E+01	1.15856E-01	-1.53246E-05	1.15856E-01	-0.00757864	0
1.47738E+02	10	3.3323860168457	4.40891E+01	1.16062E-01	-2.85277E-04	1.16062E-01	-0.140831	0
1.16895E+02	10	3.3323860168457	4.78858E+01	1.16238E-01	-4.91211E-04	1.16239E-01	-0.242125	0
9.24915E+01	10	3.3323860168457	4.93658E+01	1.16108E-01	-1.85941E-04	1.16109E-01	-0.0917557	0
7.31824E+01	10	3.3323860168457	5.08942E+01	1.16219E-01	-2.75025E-04	1.16219E-01	-0.135587	0
5.79045E+01	10	3.3323860168457	5.25718E+01	1.16261E-01	-2.81374E-04	1.16261E-01	-0.138667	0
4.58160E+01	10	3.3323860168457	5.35699E+01	1.16277E-01	-3.26575E-04	1.16277E-01	-0.160921	0
3.62512E+01	10	3.3323860168457	5.46601E+01	1.16446E-01	-2.76308E-04	1.16446E-01	-0.135954	0
2.86832E+01	10	3.3323860168457	5.58497E+01	1.16126E-01	-7.84099E-04	1.16128E-01	-0.386864	0
2.26951E+01	10	3.3323860168457	5.70570E+01	1.16369E-01	-6.75994E-04	1.16371E-01	-0.33283	0
1.79572E+01	10	3.3323860168457	5.83339E+01	1.16552E-01	-5.63623E-04	1.16554E-01	-0.277069	0
1.42083E+01	10	3.3323860168457	5.97578E+01	1.16698E-01	-5.26827E-04	1.16699E-01	-0.258657	0
1.12421E+01	10	3.3323860168457	6.13550E+01	1.16737E-01	-5.11643E-04	1.16738E-01	-0.251118	0
8.89514E+00	10	3.3323860168457	6.25169E+01	1.16590E-01	-4.54691E-04	1.16590E-01	-0.223448	0
7.03814E+00	10	3.3323860168457	6.38098E+01	1.16596E-01	-5.14024E-04	1.16597E-01	-0.252593	0
5.56882E+00	10	3.3323860168457	6.52015E+01	1.16661E-01	-4.60517E-04	1.16662E-01	-0.226174	0
4.40624E+00	10	3.3323860168457	6.67742E+01	1.16727E-01	-4.98240E-04	1.16728E-01	-0.244561	0
3.48637E+00	10	3.3323860168457	6.84906E+01	1.16742E-01	-5.31354E-04	1.16744E-01	-0.26078	0
2.75853E+00	10	3.3323860168457	7.04783E+01	1.16819E-01	-5.27600E-04	1.16820E-01	-0.258768	0
2.18265E+00	10	3.3323860168457	7.27748E+01	1.16881E-01	-5.48132E-04	1.16883E-01	-0.268695	0
1.72698E+00	10	3.3323860168457	7.54460E+01	1.16974E-01	-6.05470E-04	1.16976E-01	-0.296565	0
1.36645E+00	10	3.3323860168457	7.86354E+01	1.17009E-01	-6.33698E-04	1.17010E-01	-0.3103	0
1.08118E+00	10	3.3323860168457	8.23719E+01	1.17069E-01	-7.05283E-04	1.17072E-01	-0.345173	0
8.55468E-01	10	3.3323860168457	8.69091E+01	1.17169E-01	-7.53446E-04	1.17171E-01	-0.368431	0
6.76875E-01	10	3.3323860168457	9.24461E+01	1.17247E-01	-8.13201E-04	1.17250E-01	-0.397384	0
5.35567E-01	10	3.3323860168457	9.91878E+01	1.17361E-01	-9.19654E-04	1.17364E-01	-0.448969	0
4.23759E-01	10	3.3323860168457	1.07472E+02	1.17476E-01	-1.05004E-03	1.17481E-01	-0.512111	0
3.35293E-01	10	3.3323860168457	1.17734E+02	1.17654E-01	-1.13518E-03	1.17660E-01	-0.552795	0
2.65295E-01	10	3.3323860168457	1.26396E+02	1.17843E-01	-1.25619E-03	1.17849E-01	-0.610742	0
2.09910E-01	10	3.3323860168457	1.36965E+02	1.17931E-01	-1.37835E-03	1.17939E-01	-0.66963	0
1.66088E-01	10	3.3323860168457	1.50111E+02	1.18167E-01	-1.55831E-03	1.18178E-01	-0.755536	0
1.31415E-01	10	3.3323860168457	1.66477E+02	1.18317E-01	-1.80552E-03	1.18331E-01	-0.874267	0
1.03980E-01	10	3.3323860168457	1.86955E+02	1.18491E-01	-2.08092E-03	1.18509E-01	-1.00611	0
8.22724E-02	10	3.3323860168457	2.00117E+02	1.18710E-01	-2.38422E-03	1.18733E-01	-1.1506	0
6.50968E-02	10	3.3323860168457	2.16474E+02	1.19016E-01	-2.75687E-03	1.19048E-01	-1.32695	0
5.15068E-02	10	3.3323860168457	2.36942E+02	1.19261E-01	-3.21859E-03	1.19304E-01	-1.54591	0
4.07539E-02	10	3.3323860168457	2.62606E+02	1.19595E-01	-3.77698E-03	1.19654E-01	-1.80888	0
3.22459E-02	10	3.3323860168457	2.94783E+02	1.19982E-01	-4.39139E-03	1.20062E-01	-2.09611	0
2.55141E-02	10	3.3323860168457	3.35245E+02	1.20483E-01	-5.14111E-03	1.20592E-01	-2.44338	0
2.01876E-02	10	3.3323860168457	3.86129E+02	1.21138E-01	-5.94560E-03	1.21283E-01	-2.8099	0
1.59731E-02	10	3.3323860168457	4.50194E+02	1.21910E-01	-6.92668E-03	1.22107E-01	-3.25193	0
1.26385E-02	10	3.3323860168457	5.30942E+02	1.22876E-01	-7.89874E-03	1.23129E-01	-3.67805	0
1.00000E-02	10	3.3323860168457	6.32679E+02	1.23843E-01	-8.98167E-03	1.24168E-01	-4.14809	0