Freq(Hz)	Ampl(mV)	Bias(V)	Time(Sec)	Z'(Ohm.cm²)	Z''(Ohm.cm²)	|Z|(Ohm.cm²)	Phase	Range
1.00000E+04	10	3.29060292243958	6.79437E+00	1.13108E-01	4.79509E-02	1.22853E-01	22.9739	0
7.91234E+03	10	3.29060292243958	8.32534E+00	1.12654E-01	3.77524E-02	1.18812E-01	18.5269	0
6.26052E+03	10	3.29060292243958	9.90527E+00	1.12327E-01	2.94839E-02	1.16132E-01	14.7074	0
4.95354E+03	10	3.29060292243958	1.15302E+01	1.12249E-01	2.34233E-02	1.14667E-01	11.7869	0
3.91941E+03	10	3.29060292243958	1.32497E+01	1.12237E-01	1.82643E-02	1.13714E-01	9.24269	0
3.10117E+03	10	3.29060292243958	1.50456E+01	1.12264E-01	1.42374E-02	1.13163E-01	7.22772	0
2.45375E+03	10	3.29060292243958	1.69601E+01	1.12316E-01	1.09549E-02	1.12849E-01	5.57082	0
1.94149E+03	10	3.29060292243958	1.86003E+01	1.12355E-01	8.50816E-03	1.12676E-01	4.33051	0
1.53618E+03	10	3.29060292243958	2.03572E+01	1.12522E-01	6.41287E-03	1.12704E-01	3.26189	0
1.21547E+03	10	3.29060292243958	2.22634E+01	1.12631E-01	4.79278E-03	1.12733E-01	2.43664	0
9.61725E+02	10	3.29060292243958	2.37635E+01	1.12723E-01	3.49998E-03	1.12778E-01	1.77843	0
7.60950E+02	10	3.29060292243958	2.53820E+01	1.12875E-01	2.45566E-03	1.12902E-01	1.24631	0
6.02090E+02	10	3.29060292243958	2.71789E+01	1.13031E-01	1.59261E-03	1.13042E-01	0.807245	0
4.76394E+02	10	3.29060292243958	2.91537E+01	1.13198E-01	9.21749E-04	1.13202E-01	0.466536	0
3.76939E+02	10	3.29060292243958	3.14247E+01	1.13377E-01	3.45745E-04	1.13378E-01	0.174724	0
2.98247E+02	10	3.29060292243958	3.39419E+01	1.13585E-01	-8.84210E-05	1.13585E-01	-0.0446021	0
2.35983E+02	10	3.29060292243958	3.75058E+01	1.14695E-01	-4.18669E-04	1.14696E-01	-0.209144	0
1.86718E+02	10	3.29060292243958	4.08884E+01	1.14891E-01	-7.13610E-04	1.14893E-01	-0.35587	0
1.47738E+02	10	3.29060292243958	4.40845E+01	1.15130E-01	-9.26980E-04	1.15134E-01	-0.461312	0
1.16895E+02	10	3.29060292243958	4.78981E+01	1.15380E-01	-1.09985E-03	1.15386E-01	-0.546149	0
9.24915E+01	10	3.29060292243958	4.93626E+01	1.15571E-01	-1.17203E-03	1.15577E-01	-0.581031	0
7.31824E+01	10	3.29060292243958	5.08897E+01	1.15824E-01	-1.21873E-03	1.15831E-01	-0.602857	0
5.79045E+01	10	3.29060292243958	5.25923E+01	1.16037E-01	-1.21365E-03	1.16043E-01	-0.599246	0
4.58160E+01	10	3.29060292243958	5.35893E+01	1.16218E-01	-1.23253E-03	1.16224E-01	-0.607617	0
3.62512E+01	10	3.29060292243958	5.46459E+01	1.16515E-01	-1.19581E-03	1.16521E-01	-0.588012	0
2.86832E+01	10	3.29060292243958	5.58650E+01	1.16610E-01	-1.21422E-03	1.16617E-01	-0.596577	0
2.26951E+01	10	3.29060292243958	5.70547E+01	1.16789E-01	-1.18226E-03	1.16795E-01	-0.579985	0
1.79572E+01	10	3.29060292243958	5.83494E+01	1.16967E-01	-1.11491E-03	1.16972E-01	-0.546118	0
1.42083E+01	10	3.29060292243958	5.97711E+01	1.17084E-01	-9.81424E-04	1.17089E-01	-0.480253	0
1.12421E+01	10	3.29060292243958	6.13474E+01	1.17239E-01	-1.02633E-03	1.17244E-01	-0.501564	0
8.89514E+00	10	3.29060292243958	6.25323E+01	1.17356E-01	-1.02459E-03	1.17361E-01	-0.500211	0
7.03814E+00	10	3.29060292243958	6.38170E+01	1.17501E-01	-9.68338E-04	1.17505E-01	-0.472169	0
5.56882E+00	10	3.29060292243958	6.52379E+01	1.17629E-01	-9.79021E-04	1.17633E-01	-0.476859	0
4.40624E+00	10	3.29060292243958	6.67667E+01	1.17710E-01	-9.18197E-04	1.17713E-01	-0.446927	0
3.48637E+00	10	3.29060292243958	6.85038E+01	1.17772E-01	-9.73946E-04	1.17776E-01	-0.47381	0
2.75853E+00	10	3.29060292243958	7.04915E+01	1.17954E-01	-9.31021E-04	1.17958E-01	-0.452231	0
2.18265E+00	10	3.29060292243958	7.28095E+01	1.18029E-01	-9.39396E-04	1.18032E-01	-0.456011	0
1.72698E+00	10	3.29060292243958	7.54400E+01	1.18162E-01	-9.97562E-04	1.18166E-01	-0.483699	0
1.36645E+00	10	3.29060292243958	7.86083E+01	1.18227E-01	-1.02629E-03	1.18232E-01	-0.497353	0
1.08118E+00	10	3.29060292243958	8.23651E+01	1.18331E-01	-1.12336E-03	1.18337E-01	-0.543914	0
8.55468E-01	10	3.29060292243958	8.69229E+01	1.18478E-01	-1.18801E-03	1.18484E-01	-0.574499	0
6.76875E-01	10	3.29060292243958	9.24523E+01	1.18616E-01	-1.27093E-03	1.18623E-01	-0.61388	0
5.35567E-01	10	3.29060292243958	9.91855E+01	1.18756E-01	-1.33666E-03	1.18764E-01	-0.644867	0
4.23759E-01	10	3.29060292243958	1.07473E+02	1.18933E-01	-1.48725E-03	1.18942E-01	-0.716441	0
3.35293E-01	10	3.29060292243958	1.17737E+02	1.19117E-01	-1.60963E-03	1.19128E-01	-0.774194	0
2.65295E-01	10	3.29060292243958	1.26387E+02	1.19326E-01	-1.62191E-03	1.19337E-01	-0.778734	0
2.09910E-01	10	3.29060292243958	1.36976E+02	1.19497E-01	-1.82209E-03	1.19510E-01	-0.873583	0
1.66088E-01	10	3.29060292243958	1.50114E+02	1.19763E-01	-2.03538E-03	1.19780E-01	-0.973655	0
1.31415E-01	10	3.29060292243958	1.66484E+02	1.19944E-01	-2.31498E-03	1.19966E-01	-1.1057	0
1.03980E-01	10	3.29060292243958	1.86945E+02	1.20116E-01	-2.59785E-03	1.20144E-01	-1.23899	0
8.22724E-02	10	3.29060292243958	2.00100E+02	1.20459E-01	-2.94260E-03	1.20495E-01	-1.39935	0
6.50968E-02	10	3.29060292243958	2.16485E+02	1.20712E-01	-3.34871E-03	1.20758E-01	-1.58905	0
5.15068E-02	10	3.29060292243958	2.36954E+02	1.21088E-01	-3.89749E-03	1.21151E-01	-1.84356	0
4.07539E-02	10	3.29060292243958	2.62610E+02	1.21519E-01	-4.44681E-03	1.21600E-01	-2.09572	0
3.22459E-02	10	3.29060292243958	2.94788E+02	1.21968E-01	-5.14183E-03	1.22076E-01	-2.414	0
2.55141E-02	10	3.29060292243958	3.35233E+02	1.22570E-01	-5.98243E-03	1.22716E-01	-2.79429	0
2.01876E-02	10	3.29060292243958	3.86139E+02	1.23305E-01	-6.87875E-03	1.23497E-01	-3.19301	0
1.59731E-02	10	3.29060292243958	4.50191E+02	1.24117E-01	-7.98287E-03	1.24374E-01	-3.68003	0
1.26385E-02	10	3.29060292243958	5.30946E+02	1.25143E-01	-9.13542E-03	1.25476E-01	-4.17517	0
1.00000E-02	10	3.29060292243958	6.32691E+02	1.26347E-01	-1.04636E-02	1.26779E-01	-4.73423	0