Freq(Hz)	Ampl(mV)	Bias(V)	Time(Sec)	Z'(Ohm.cm²)	Z''(Ohm.cm²)	|Z|(Ohm.cm²)	Phase	Range
1.00000E+04	10	3.29785108566284	6.63382E+00	1.20952E-01	4.57703E-02	1.29322E-01	20.7276	0
7.91234E+03	10	3.29785108566284	8.17847E+00	1.21027E-01	3.54250E-02	1.26105E-01	16.3149	0
6.26052E+03	10	3.29785108566284	9.75523E+00	1.21280E-01	2.70929E-02	1.24269E-01	12.5926	0
4.95354E+03	10	3.29785108566284	1.14076E+01	1.21679E-01	2.09325E-02	1.23467E-01	9.76105	0
3.91941E+03	10	3.29785108566284	1.31038E+01	1.22040E-01	1.58015E-02	1.23059E-01	7.37748	0
3.10117E+03	10	3.29785108566284	1.49024E+01	1.22505E-01	1.17781E-02	1.23070E-01	5.49177	0
2.45375E+03	10	3.29785108566284	1.68096E+01	1.22967E-01	8.49807E-03	1.23261E-01	3.95333	0
1.94149E+03	10	3.29785108566284	1.84374E+01	1.23409E-01	6.06763E-03	1.23558E-01	2.81478	0
1.53618E+03	10	3.29785108566284	2.01954E+01	1.23971E-01	4.01545E-03	1.24036E-01	1.85517	0
1.21547E+03	10	3.29785108566284	2.21386E+01	1.24505E-01	2.44342E-03	1.24529E-01	1.12429	0
9.61725E+02	10	3.29785108566284	2.36273E+01	1.24972E-01	1.23163E-03	1.24978E-01	0.564645	0
7.60950E+02	10	3.29785108566284	2.52397E+01	1.25473E-01	2.39478E-04	1.25473E-01	0.109355	0
6.02090E+02	10	3.29785108566284	2.70222E+01	1.26018E-01	-5.31058E-04	1.26019E-01	-0.241452	0
4.76394E+02	10	3.29785108566284	2.90068E+01	1.26496E-01	-1.14028E-03	1.26501E-01	-0.51647	0
3.76939E+02	10	3.29785108566284	3.12590E+01	1.26998E-01	-1.67769E-03	1.27009E-01	-0.756857	0
2.98247E+02	10	3.29785108566284	3.37940E+01	1.27514E-01	-2.10115E-03	1.27532E-01	-0.94402	0
2.35983E+02	10	3.29785108566284	3.73775E+01	1.28987E-01	-2.39361E-03	1.29009E-01	-1.06311	0
1.86718E+02	10	3.29785108566284	4.07526E+01	1.29508E-01	-2.68085E-03	1.29535E-01	-1.18587	0
1.47738E+02	10	3.29785108566284	4.39423E+01	1.30027E-01	-2.91303E-03	1.30060E-01	-1.2834	0
1.16895E+02	10	3.29785108566284	4.77616E+01	1.30594E-01	-3.10746E-03	1.30631E-01	-1.36309	0
9.24915E+01	10	3.29785108566284	4.92248E+01	1.31037E-01	-3.17246E-03	1.31076E-01	-1.38688	0
7.31824E+01	10	3.29785108566284	5.07455E+01	1.31612E-01	-3.19566E-03	1.31650E-01	-1.39092	0
5.79045E+01	10	3.29785108566284	5.24550E+01	1.32159E-01	-3.23588E-03	1.32199E-01	-1.40259	0
4.58160E+01	10	3.29785108566284	5.34614E+01	1.32772E-01	-3.19003E-03	1.32810E-01	-1.37635	0
3.62512E+01	10	3.29785108566284	5.45100E+01	1.33296E-01	-3.19511E-03	1.33334E-01	-1.37313	0
2.86832E+01	10	3.29785108566284	5.57370E+01	1.33604E-01	-3.42951E-03	1.33648E-01	-1.47042	0
2.26951E+01	10	3.29785108566284	5.69255E+01	1.34161E-01	-3.06593E-03	1.34196E-01	-1.30913	0
1.79572E+01	10	3.29785108566284	5.82210E+01	1.34649E-01	-2.93146E-03	1.34681E-01	-1.2472	0
1.42083E+01	10	3.29785108566284	5.96313E+01	1.35053E-01	-2.79108E-03	1.35082E-01	-1.18394	0
1.12421E+01	10	3.29785108566284	6.12159E+01	1.35464E-01	-2.68665E-03	1.35490E-01	-1.1362	0
8.89514E+00	10	3.29785108566284	6.24023E+01	1.35825E-01	-2.57322E-03	1.35850E-01	-1.08534	0
7.03814E+00	10	3.29785108566284	6.36887E+01	1.36126E-01	-2.45576E-03	1.36148E-01	-1.03352	0
5.56882E+00	10	3.29785108566284	6.50913E+01	1.36460E-01	-2.33681E-03	1.36480E-01	-0.981065	0
4.40624E+00	10	3.29785108566284	6.66421E+01	1.36775E-01	-2.13376E-03	1.36792E-01	-0.893768	0
3.48637E+00	10	3.29785108566284	6.83803E+01	1.36999E-01	-2.11287E-03	1.37016E-01	-0.883573	0
2.75853E+00	10	3.29785108566284	7.03527E+01	1.37301E-01	-2.00398E-03	1.37316E-01	-0.836204	0
2.18265E+00	10	3.29785108566284	7.26652E+01	1.37494E-01	-1.87472E-03	1.37506E-01	-0.781177	0
1.72698E+00	10	3.29785108566284	7.53508E+01	1.37727E-01	-1.83508E-03	1.37740E-01	-0.763364	0
1.36645E+00	10	3.29785108566284	7.84770E+01	1.37887E-01	-1.78299E-03	1.37899E-01	-0.74084	0
1.08118E+00	10	3.29785108566284	8.22369E+01	1.38054E-01	-1.83407E-03	1.38067E-01	-0.761138	0
8.55468E-01	10	3.29785108566284	8.68290E+01	1.38234E-01	-1.81072E-03	1.38245E-01	-0.750476	0
6.76875E-01	10	3.29785108566284	9.23366E+01	1.38409E-01	-1.82704E-03	1.38421E-01	-0.756279	0
5.35567E-01	10	3.29785108566284	9.90685E+01	1.38563E-01	-1.84330E-03	1.38576E-01	-0.762156	0
4.23759E-01	10	3.29785108566284	1.07362E+02	1.38750E-01	-1.89221E-03	1.38763E-01	-0.781327	0
3.35293E-01	10	3.29785108566284	1.17628E+02	1.38917E-01	-1.98163E-03	1.38932E-01	-0.817256	0
2.65295E-01	10	3.29785108566284	1.26282E+02	1.39069E-01	-1.88753E-03	1.39082E-01	-0.777606	0
2.09910E-01	10	3.29785108566284	1.36865E+02	1.39210E-01	-2.00972E-03	1.39224E-01	-0.8271	0
1.66088E-01	10	3.29785108566284	1.49994E+02	1.39328E-01	-2.14836E-03	1.39344E-01	-0.883402	0
1.31415E-01	10	3.29785108566284	1.66387E+02	1.39418E-01	-2.36892E-03	1.39438E-01	-0.973449	0
1.03980E-01	10	3.29785108566284	1.86830E+02	1.39481E-01	-2.59417E-03	1.39506E-01	-1.0655	0
8.22724E-02	10	3.29785108566284	1.99983E+02	1.39715E-01	-2.92344E-03	1.39746E-01	-1.1987	0
6.50968E-02	10	3.29785108566284	2.16377E+02	1.39971E-01	-3.29452E-03	1.40010E-01	-1.34833	0
5.15068E-02	10	3.29785108566284	2.36839E+02	1.40330E-01	-3.80354E-03	1.40381E-01	-1.55258	0
4.07539E-02	10	3.29785108566284	2.62497E+02	1.40562E-01	-4.30559E-03	1.40628E-01	-1.75449	0
3.22459E-02	10	3.29785108566284	2.94681E+02	1.40887E-01	-5.03673E-03	1.40977E-01	-2.04746	0
2.55141E-02	10	3.29785108566284	3.35128E+02	1.41319E-01	-5.88546E-03	1.41441E-01	-2.3848	0
2.01876E-02	10	3.29785108566284	3.86020E+02	1.41840E-01	-6.92327E-03	1.42009E-01	-2.79441	0
1.59731E-02	10	3.29785108566284	4.50083E+02	1.42487E-01	-8.17608E-03	1.42721E-01	-3.2841	0
1.26385E-02	10	3.29785108566284	5.30805E+02	1.43214E-01	-9.71392E-03	1.43543E-01	-3.88031	0
1.00000E-02	10	3.29785108566284	6.32576E+02	1.44205E-01	-1.14264E-02	1.44657E-01	-4.53046	0