Freq(Hz)	Ampl(mV)	Bias(V)	Time(Sec)	Z'(Ohm.cm²)	Z''(Ohm.cm²)	|Z|(Ohm.cm²)	Phase	Range
1.00000E+04	10	3.01758337020874	6.70701E+00	1.16289E-01	4.61933E-02	1.25128E-01	21.6644	0
7.91234E+03	10	3.01758337020874	8.24312E+00	1.16485E-01	3.58898E-02	1.21889E-01	17.1244	0
6.26052E+03	10	3.01758337020874	9.81837E+00	1.16648E-01	2.76678E-02	1.19884E-01	13.3435	0
4.95354E+03	10	3.01758337020874	1.14590E+01	1.16981E-01	2.15704E-02	1.18953E-01	10.4475	0
3.91941E+03	10	3.01758337020874	1.31695E+01	1.17325E-01	1.65496E-02	1.18486E-01	8.02905	0
3.10117E+03	10	3.01758337020874	1.49631E+01	1.17677E-01	1.25842E-02	1.18348E-01	6.10393	0
2.45375E+03	10	3.01758337020874	1.68895E+01	1.18025E-01	9.38784E-03	1.18398E-01	4.5478	0
1.94149E+03	10	3.01758337020874	1.85234E+01	1.18306E-01	7.02557E-03	1.18515E-01	3.39849	0
1.53618E+03	10	3.01758337020874	2.02766E+01	1.18708E-01	4.97859E-03	1.18813E-01	2.40156	0
1.21547E+03	10	3.01758337020874	2.21877E+01	1.19068E-01	3.40803E-03	1.19116E-01	1.63951	0
9.61725E+02	10	3.01758337020874	2.36935E+01	1.19339E-01	2.19642E-03	1.19359E-01	1.0544	0
7.60950E+02	10	3.01758337020874	2.53058E+01	1.19666E-01	1.16259E-03	1.19672E-01	0.556624	0
6.02090E+02	10	3.01758337020874	2.70940E+01	1.20019E-01	3.38999E-04	1.20019E-01	0.161835	0
4.76394E+02	10	3.01758337020874	2.90784E+01	1.20351E-01	-3.69821E-04	1.20352E-01	-0.17606	0
3.76939E+02	10	3.01758337020874	3.13217E+01	1.20730E-01	-9.45730E-04	1.20734E-01	-0.448813	0
2.98247E+02	10	3.01758337020874	3.38474E+01	1.21097E-01	-1.45436E-03	1.21106E-01	-0.688085	0
2.35983E+02	10	3.01758337020874	3.74241E+01	1.22449E-01	-1.86001E-03	1.22463E-01	-0.870262	0
1.86718E+02	10	3.01758337020874	4.08100E+01	1.22901E-01	-2.24632E-03	1.22922E-01	-1.0471	0
1.47738E+02	10	3.01758337020874	4.40057E+01	1.23374E-01	-2.60856E-03	1.23402E-01	-1.21125	0
1.16895E+02	10	3.01758337020874	4.78021E+01	1.23899E-01	-2.93030E-03	1.23934E-01	-1.35483	0
9.24915E+01	10	3.01758337020874	4.92760E+01	1.24351E-01	-3.11990E-03	1.24390E-01	-1.43722	0
7.31824E+01	10	3.01758337020874	5.07928E+01	1.24913E-01	-3.31377E-03	1.24957E-01	-1.51962	0
5.79045E+01	10	3.01758337020874	5.24952E+01	1.25522E-01	-3.48828E-03	1.25571E-01	-1.59184	0
4.58160E+01	10	3.01758337020874	5.35100E+01	1.26100E-01	-3.58355E-03	1.26151E-01	-1.62781	0
3.62512E+01	10	3.01758337020874	5.45618E+01	1.26774E-01	-3.66384E-03	1.26827E-01	-1.65542	0
2.86832E+01	10	3.01758337020874	5.57744E+01	1.27266E-01	-3.86693E-03	1.27325E-01	-1.74037	0
2.26951E+01	10	3.01758337020874	5.69535E+01	1.27986E-01	-3.90558E-03	1.28045E-01	-1.74788	0
1.79572E+01	10	3.01758337020874	5.82713E+01	1.28652E-01	-3.83639E-03	1.28709E-01	-1.70805	0
1.42083E+01	10	3.01758337020874	5.96835E+01	1.29249E-01	-3.77886E-03	1.29304E-01	-1.67468	0
1.12421E+01	10	3.01758337020874	6.12660E+01	1.29909E-01	-3.66430E-03	1.29961E-01	-1.61569	0
8.89514E+00	10	3.01758337020874	6.24560E+01	1.30493E-01	-3.50898E-03	1.30540E-01	-1.54032	0
7.03814E+00	10	3.01758337020874	6.37254E+01	1.30999E-01	-3.29173E-03	1.31041E-01	-1.43942	0
5.56882E+00	10	3.01758337020874	6.51301E+01	1.31552E-01	-3.09841E-03	1.31589E-01	-1.34922	0
4.40624E+00	10	3.01758337020874	6.66815E+01	1.31954E-01	-2.86418E-03	1.31985E-01	-1.24346	0
3.48637E+00	10	3.01758337020874	6.84221E+01	1.32339E-01	-2.69665E-03	1.32367E-01	-1.16734	0
2.75853E+00	10	3.01758337020874	7.04091E+01	1.32750E-01	-2.54708E-03	1.32774E-01	-1.0992	0
2.18265E+00	10	3.01758337020874	7.26902E+01	1.33004E-01	-2.27866E-03	1.33024E-01	-0.981507	0
1.72698E+00	10	3.01758337020874	7.53785E+01	1.33222E-01	-2.16573E-03	1.33239E-01	-0.931353	0
1.36645E+00	10	3.01758337020874	7.85202E+01	1.33421E-01	-2.11516E-03	1.33437E-01	-0.908253	0
1.08118E+00	10	3.01758337020874	8.22918E+01	1.33599E-01	-2.11389E-03	1.33616E-01	-0.906495	0
8.55468E-01	10	3.01758337020874	8.68308E+01	1.33897E-01	-2.06562E-03	1.33913E-01	-0.883827	0
6.76875E-01	10	3.01758337020874	9.23657E+01	1.34083E-01	-2.11559E-03	1.34099E-01	-0.903953	0
5.35567E-01	10	3.01758337020874	9.90996E+01	1.34273E-01	-2.13409E-03	1.34290E-01	-0.910563	0
4.23759E-01	10	3.01758337020874	1.07390E+02	1.34560E-01	-2.23085E-03	1.34578E-01	-0.949815	0
3.35293E-01	10	3.01758337020874	1.17659E+02	1.34761E-01	-2.33237E-03	1.34781E-01	-0.991544	0
2.65295E-01	10	3.01758337020874	1.26303E+02	1.34996E-01	-2.38936E-03	1.35017E-01	-1.014	0
2.09910E-01	10	3.01758337020874	1.36885E+02	1.35223E-01	-2.62200E-03	1.35248E-01	-1.11084	0
1.66088E-01	10	3.01758337020874	1.50018E+02	1.35504E-01	-2.97023E-03	1.35537E-01	-1.25571	0
1.31415E-01	10	3.01758337020874	1.66392E+02	1.35678E-01	-3.39514E-03	1.35721E-01	-1.43344	0
1.03980E-01	10	3.01758337020874	1.86868E+02	1.35874E-01	-3.89894E-03	1.35930E-01	-1.64366	0
8.22724E-02	10	3.01758337020874	2.00012E+02	1.36130E-01	-4.55615E-03	1.36206E-01	-1.91692	0
6.50968E-02	10	3.01758337020874	2.16412E+02	1.36622E-01	-5.43714E-03	1.36730E-01	-2.279	0
5.15068E-02	10	3.01758337020874	2.36872E+02	1.36999E-01	-6.48391E-03	1.37153E-01	-2.70967	0
4.07539E-02	10	3.01758337020874	2.62515E+02	1.37461E-01	-7.79086E-03	1.37682E-01	-3.24388	0
3.22459E-02	10	3.01758337020874	2.94710E+02	1.38011E-01	-9.31101E-03	1.38325E-01	-3.85964	0
2.55141E-02	10	3.01758337020874	3.35151E+02	1.38639E-01	-1.12901E-02	1.39098E-01	-4.65564	0
2.01876E-02	10	3.01758337020874	3.86050E+02	1.39405E-01	-1.36563E-02	1.40072E-01	-5.59496	0
1.59731E-02	10	3.01758337020874	4.50108E+02	1.40302E-01	-1.64677E-02	1.41265E-01	-6.69437	0
1.26385E-02	10	3.01758337020874	5.30839E+02	1.41380E-01	-2.00226E-02	1.42791E-01	-8.06075	0
1.00000E-02	10	3.01758337020874	6.32596E+02	1.42705E-01	-2.41818E-02	1.44739E-01	-9.61759	0