Freq(Hz)	Ampl(mV)	Bias(V)	Time(Sec)	Z'(Ohm.cm²)	Z''(Ohm.cm²)	|Z|(Ohm.cm²)	Phase	Range
1.00000E+04	10	3.29136037826538	6.02702E+00	1.11589E-01	4.63018E-02	1.20813E-01	22.5352	0
7.91234E+03	10	3.29136037826538	7.55873E+00	1.11342E-01	3.63899E-02	1.17138E-01	18.0989	0
6.26052E+03	10	3.29136037826538	9.13919E+00	1.11188E-01	2.84313E-02	1.14765E-01	14.3434	0
4.95354E+03	10	3.29136037826538	1.07706E+01	1.11205E-01	2.26047E-02	1.13479E-01	11.49	0
3.91941E+03	10	3.29136037826538	1.25022E+01	1.11246E-01	1.75752E-02	1.12626E-01	8.97763	0
3.10117E+03	10	3.29136037826538	1.42854E+01	1.11316E-01	1.37034E-02	1.12156E-01	7.01803	0
2.45375E+03	10	3.29136037826538	1.62126E+01	1.11416E-01	1.05236E-02	1.11912E-01	5.39577	0
1.94149E+03	10	3.29136037826538	1.78335E+01	1.11488E-01	8.22004E-03	1.11791E-01	4.21679	0
1.53618E+03	10	3.29136037826538	1.96070E+01	1.11670E-01	6.20197E-03	1.11843E-01	3.17883	0
1.21547E+03	10	3.29136037826538	2.15067E+01	1.11813E-01	4.60942E-03	1.11908E-01	2.36064	0
9.61725E+02	10	3.29136037826538	2.30009E+01	1.11911E-01	3.38079E-03	1.11962E-01	1.73036	0
7.60950E+02	10	3.29136037826538	2.46282E+01	1.12073E-01	2.35527E-03	1.12098E-01	1.20392	0
6.02090E+02	10	3.29136037826538	2.64156E+01	1.12270E-01	1.53956E-03	1.12281E-01	0.785647	0
4.76394E+02	10	3.29136037826538	2.83915E+01	1.12430E-01	9.16844E-04	1.12433E-01	0.467227	0
3.76939E+02	10	3.29136037826538	3.06275E+01	1.12692E-01	3.78306E-04	1.12693E-01	0.192341	0
2.98247E+02	10	3.29136037826538	3.31900E+01	1.12901E-01	-7.51770E-05	1.12901E-01	-0.0381513	0
2.35983E+02	10	3.29136037826538	3.67575E+01	1.14018E-01	-3.58173E-04	1.14018E-01	-0.179987	0
1.86718E+02	10	3.29136037826538	4.01372E+01	1.14281E-01	-6.18481E-04	1.14283E-01	-0.310078	0
1.47738E+02	10	3.29136037826538	4.33387E+01	1.14541E-01	-8.21059E-04	1.14544E-01	-0.410702	0
1.16895E+02	10	3.29136037826538	4.71507E+01	1.14794E-01	-9.49728E-04	1.14798E-01	-0.474018	0
9.24915E+01	10	3.29136037826538	4.86234E+01	1.14946E-01	-1.00804E-03	1.14951E-01	-0.502454	0
7.31824E+01	10	3.29136037826538	5.01330E+01	1.15172E-01	-1.03649E-03	1.15177E-01	-0.515619	0
5.79045E+01	10	3.29136037826538	5.18277E+01	1.15370E-01	-1.03134E-03	1.15374E-01	-0.512179	0
4.58160E+01	10	3.29136037826538	5.28349E+01	1.15579E-01	-1.07820E-03	1.15584E-01	-0.534475	0
3.62512E+01	10	3.29136037826538	5.39010E+01	1.15716E-01	-1.02082E-03	1.15721E-01	-0.505434	0
2.86832E+01	10	3.29136037826538	5.51068E+01	1.15872E-01	-1.06245E-03	1.15877E-01	-0.525338	0
2.26951E+01	10	3.29136037826538	5.63151E+01	1.16021E-01	-1.13610E-03	1.16027E-01	-0.561031	0
1.79572E+01	10	3.29136037826538	5.76026E+01	1.16167E-01	-9.97645E-04	1.16172E-01	-0.492044	0
1.42083E+01	10	3.29136037826538	5.90235E+01	1.16299E-01	-9.28741E-04	1.16303E-01	-0.457543	0
1.12421E+01	10	3.29136037826538	6.05987E+01	1.16406E-01	-9.30036E-04	1.16410E-01	-0.45776	0
8.89514E+00	10	3.29136037826538	6.17904E+01	1.16506E-01	-8.80313E-04	1.16509E-01	-0.432915	0
7.03814E+00	10	3.29136037826538	6.30791E+01	1.16629E-01	-8.91426E-04	1.16632E-01	-0.43792	0
5.56882E+00	10	3.29136037826538	6.44737E+01	1.16741E-01	-8.72876E-04	1.16744E-01	-0.428393	0
4.40624E+00	10	3.29136037826538	6.60371E+01	1.16835E-01	-8.60949E-04	1.16838E-01	-0.422203	0
3.48637E+00	10	3.29136037826538	6.77668E+01	1.16947E-01	-8.57478E-04	1.16950E-01	-0.420098	0
2.75853E+00	10	3.29136037826538	6.97484E+01	1.17045E-01	-9.06747E-04	1.17049E-01	-0.443861	0
2.18265E+00	10	3.29136037826538	7.20316E+01	1.17160E-01	-8.85958E-04	1.17164E-01	-0.433258	0
1.72698E+00	10	3.29136037826538	7.47032E+01	1.17229E-01	-9.40262E-04	1.17233E-01	-0.459543	0
1.36645E+00	10	3.29136037826538	7.78644E+01	1.17272E-01	-9.97513E-04	1.17276E-01	-0.487344	0
1.08118E+00	10	3.29136037826538	8.16182E+01	1.17395E-01	-1.04536E-03	1.17400E-01	-0.510184	0
8.55468E-01	10	3.29136037826538	8.61629E+01	1.17532E-01	-1.13723E-03	1.17538E-01	-0.55437	0
6.76875E-01	10	3.29136037826538	9.17041E+01	1.17667E-01	-1.18073E-03	1.17673E-01	-0.574912	0
5.35567E-01	10	3.29136037826538	9.84363E+01	1.17796E-01	-1.30675E-03	1.17803E-01	-0.635576	0
4.23759E-01	10	3.29136037826538	1.06735E+02	1.17962E-01	-1.44262E-03	1.17970E-01	-0.700668	0
3.35293E-01	10	3.29136037826538	1.16989E+02	1.18095E-01	-1.55035E-03	1.18106E-01	-0.752134	0
2.65295E-01	10	3.29136037826538	1.25671E+02	1.18306E-01	-1.55375E-03	1.18316E-01	-0.752439	0
2.09910E-01	10	3.29136037826538	1.36227E+02	1.18471E-01	-1.78210E-03	1.18485E-01	-0.861807	0
1.66088E-01	10	3.29136037826538	1.49367E+02	1.18603E-01	-1.96969E-03	1.18619E-01	-0.951452	0
1.31415E-01	10	3.29136037826538	1.65742E+02	1.18804E-01	-2.22250E-03	1.18825E-01	-1.07172	0
1.03980E-01	10	3.29136037826538	1.86202E+02	1.18990E-01	-2.50869E-03	1.19016E-01	-1.2078	0
8.22724E-02	10	3.29136037826538	1.99359E+02	1.19229E-01	-2.87524E-03	1.19263E-01	-1.38144	0
6.50968E-02	10	3.29136037826538	2.15734E+02	1.19546E-01	-3.24317E-03	1.19590E-01	-1.554	0
5.15068E-02	10	3.29136037826538	2.36211E+02	1.19930E-01	-3.74167E-03	1.19988E-01	-1.78698	0
4.07539E-02	10	3.29136037826538	2.61854E+02	1.20320E-01	-4.36345E-03	1.20399E-01	-2.07694	0
3.22459E-02	10	3.29136037826538	2.94044E+02	1.20742E-01	-4.99021E-03	1.20845E-01	-2.36666	0
2.55141E-02	10	3.29136037826538	3.34496E+02	1.21319E-01	-5.79411E-03	1.21458E-01	-2.73432	0
2.01876E-02	10	3.29136037826538	3.85400E+02	1.22001E-01	-6.73092E-03	1.22187E-01	-3.15786	0
1.59731E-02	10	3.29136037826538	4.49454E+02	1.22785E-01	-7.91301E-03	1.23040E-01	-3.68739	0
1.26385E-02	10	3.29136037826538	5.30175E+02	1.23683E-01	-9.06296E-03	1.24014E-01	-4.19091	0
1.00000E-02	10	3.29136037826538	6.31936E+02	1.24865E-01	-1.03886E-02	1.25297E-01	-4.75599	0